
T409C 000:068 SEGGER J-Link V4.50j Log File (0001ms, 0068ms total)
T409C 000:068 DLL Compiled: Jun 26 2012 09:19:07 (0001ms, 0068ms total)
T409C 000:068 Logging started @ 2014-09-30 14:55 (0001ms, 0068ms total)
T409C 000:069 JLINK_SetWarnOutHandler(...) (0000ms, 0068ms total)
T409C 000:069 JLINK_OpenEx(...)
Firmware: J-Link ARM V8 compiled Jul 17 2013 11:24:15
Hardware: V8.00
S/N: 270676280
Feature(s): RDI,FlashDL,FlashBP,JFlash,GDBFULL  returns O.K. (0036ms, 0104ms total)
T409C 000:105 JLINK_SetErrorOutHandler(...) (0000ms, 0104ms total)
T409C 000:105 JLINK_ExecCommand("Device = STM32F407VG", ...)
                JLINK_ExecCommand("map ram 0x20000000 - 0x2001FFFF", ...)  returns 0x00 (0000ms, 0000ms total)
                JLINK_AddMirrorAreaEx(Addr = 0x00000000, Size = 0x00000000) (0000ms, 0000ms total)
              Device "STM32F407VG" selected (1024 KB flash, 128 KB RAM).  returns 0x00 (0004ms, 0108ms total)
T409C 000:109 JLINK_ExecCommand("ProjectFile = "C:\Users\³å\Documents\GitHub\STM32_DGUS\STM32_Demo\projects\test\mdk\JLinkSettings.ini"", ...)  returns 0x00 (0001ms, 0109ms total)
T409C 000:110 JLINK_ExecCommand("DisableConnectionTimeout", ...)  returns 0x00 (0000ms, 0109ms total)
T409C 000:110 JLINK_TIF_Select(JLINKARM_TIF_JTAG)  returns 0x00 (0000ms, 0109ms total)
T409C 000:110 JLINK_SetSpeed(2000) (0002ms, 0111ms total)
T409C 000:112 JLINK_GetHardwareVersion()  returns 0x13880 (0000ms, 0111ms total)
T409C 000:112 JLINK_GetDLLVersion()  returns 45010 (0000ms, 0111ms total)
T409C 000:112 JLINK_GetFirmwareString(...) (0000ms, 0111ms total)
T409C 000:113 JLINK_GetDLLVersion()  returns 45010 (0000ms, 0111ms total)
T409C 000:113 JLINK_GetCompileDateTime() (0000ms, 0111ms total)
T409C 000:114 JLINK_GetFirmwareString(...) (0000ms, 0111ms total)
T409C 000:114 JLINK_GetHardwareVersion()  returns 0x13880 (0000ms, 0111ms total)
T409C 000:115 JLINK_GetIdData(...) >0x2F8 JTAG>TotalIRLen = 9, IRPrint = 0x0011 >0x30 JTAG> >0x210 JTAG> >0x40 JTAG> >0x40 JTAG> >0x40 JTAG> >0x30 JTAG> >0x40 JTAG> >0x40 JTAG> >0x40 JTAG> >0x40 JTAG> >0x40 JTAG> >0x40 JTAG> >0x40 JTAG> >0x40 JTAG> >0x40 JTAG> >0x40 JTAG> >0x40 JTAG> >0x2F8 JTAG>TotalIRLen = 9, IRPrint = 0x0011 >0x30 JTAG> >0x210 JTAG> >0x80 JTAG> >0x40 JTAG> >0x40 JTAG> >0x50 JTAG> >0x40 JTAG> >0x40 JTAG> >0x40 JTAG> >0x50 JTAG> >0x40 JTAG> >0x50 JTAG> >0x40 JTAG> >0x40 JTAG>
 >0x40 JTAG> >0x40 JTAG> >0x30 JTAG> >0x40 JTAG> >0x50 JTAG> >0x40 JTAG> >0x38 JTAG> >0x80 JTAG> >0x40 JTAG> >0x40 JTAG> >0x50 JTAG> >0x40 JTAG> >0x40 JTAG> >0x40 JTAG> >0x50 JTAG> >0x40 JTAG> >0x40 JTAG> >0x30 JTAG> >0x40 JTAG> >0x40 JTAG> >0x40 JTAG> >0x40 JTAG> >0x40 JTAG> >0x50 JTAG> >0x40 JTAG> >0x80 JTAG> >0x40 JTAG> >0x30 JTAG> >0x40 JTAG> >0x40 JTAG> >0x40 JTAG> >0x40 JTAG> >0x40 JTAG> >0x50 JTAG> >0x40 JTAG> >0x80 JTAG> >0x40 JTAG> >0x30 JTAG> >0x40 JTAG> >0x50 JTAG> >0x40 JTAG> >0x40 JTAG>
 >0x40 JTAG> >0x30 JTAG> >0x40 JTAG> >0x50 JTAG> >0x40 JTAG>Found Cortex-M4 r0p1, Little endian. >0x50 JTAG> >0x50 JTAG> >0x40 JTAG> >0x40 JTAG> >0x30 JTAG> >0x30 JTAG> >0x50 JTAG> >0x40 JTAG> >0x80 JTAG> >0x40 JTAG> >0x30 JTAG> >0x40 JTAG> >0x50 JTAG> >0x40 JTAG> >0x40 JTAG> >0x40 JTAG> >0x30 JTAG> >0x40 JTAG> >0x50 JTAG> >0x40 JTAG>TPIU fitted. >0x40 JTAG> >0x40 JTAG> >0x30 JTAG> >0x40 JTAG> >0x50 JTAG> >0x40 JTAG>ETM fitted. >0x40 JTAG> >0x40 JTAG> >0x30 JTAG> >0x40 JTAG> >0x50 JTAG> >0x40 JTAG>
 >0x40 JTAG> >0x40 JTAG> >0x30 JTAG> >0x40 JTAG> >0x50 JTAG> >0x40 JTAG>FPUnit: 6 code (BP) slots and 2 literal slots >0x40 JTAG> >0x40 JTAG> >0x30 JTAG> >0x40 JTAG> >0x50 JTAG> >0x40 JTAG> >0x40 JTAG> >0x40 JTAG> >0x30 JTAG> >0x40 JTAG> >0x50 JTAG> >0x40 JTAG> ScanLen=9 NumDevices=2 aId[0]=0x4BA00477 aIrRead[0]=0 aScanLen[0]=0 aScanRead[0]=0 (0138ms, 0249ms total)
T409C 000:253 JLINK_JTAG_GetDeviceID(DeviceIndex = 0)  returns 0x4BA00477 (0000ms, 0249ms total)
T409C 000:253 JLINK_JTAG_GetDeviceInfo(DeviceIndex = 0)  returns 0x00 (0000ms, 0249ms total)
T409C 000:253 JLINK_JTAG_GetDeviceID(DeviceIndex = 1)  returns 0x6413041 (0000ms, 0249ms total)
T409C 000:253 JLINK_JTAG_GetDeviceInfo(DeviceIndex = 1)  returns 0x00 (0000ms, 0249ms total)
T409C 000:253 JLINK_GetDebugInfo(0x100) -- Value=0xE00FF003  returns 0x00 (0000ms, 0249ms total)
T409C 000:253 JLINK_ReadMem (0xE00FFFF0, 0x0010 Bytes, ...) -- CPU is running -- CPU_ReadMem(16 bytes @ 0xE00FFFF0) -- Data:  0D 00 00 00 10 00 00 00 05 00 00 00 B1 00 00 00  returns 0x00 (0005ms, 0254ms total)
T409C 000:258 JLINK_ReadMem (0xE00FFFD0, 0x0020 Bytes, ...) -- CPU is running -- CPU_ReadMem(32 bytes @ 0xE00FFFD0) -- Data:  00 00 00 00 00 00 00 00 00 00 00 00 00 00 00 00 ...  returns 0x00 (0002ms, 0256ms total)
T409C 000:260 JLINK_ReadMem (0xE00FF000, 0x0018 Bytes, ...) -- CPU is running -- CPU_ReadMem(24 bytes @ 0xE00FF000) -- Data:  03 F0 F0 FF 03 20 F0 FF 03 30 F0 FF 03 10 F0 FF ...  returns 0x00 (0001ms, 0257ms total)
T409C 000:261 JLINK_ReadMemU32(0xE000ED00, 0x0001 Items, ...) -- CPU is running -- CPU_ReadMem(4 bytes @ 0xE000ED00) -- Data:  41 C2 0F 41  returns 0x01 (0001ms, 0258ms total)
T409C 000:262 JLINK_ReadMemU32(0xE000EF40, 0x0001 Items, ...) -- CPU is running -- CPU_ReadMem(4 bytes @ 0xE000EF40) -- Data:  21 00 11 10  returns 0x01 (0001ms, 0259ms total)
T409C 000:263 JLINK_ReadMemU32(0xE000EF44, 0x0001 Items, ...) -- CPU is running -- CPU_ReadMem(4 bytes @ 0xE000EF44) -- Data:  11 00 00 11  returns 0x01 (0001ms, 0260ms total)
T409C 000:264 JLINK_SetResetType(JLINKARM_RESET_TYPE_NORMAL)  returns JLINKARM_RESET_TYPE_NORMAL (0000ms, 0260ms total)
T409C 000:264 JLINK_Reset() >0x48 JTAG> >0x80 JTAG> >0x40 JTAG> >0x40 JTAG> >0x50 JTAG> >0x40 JTAG> >0x40 JTAG> >0x40 JTAG> >0x50 JTAG> >0x40 JTAG> >0x40 JTAG> >0x30 JTAG> >0x40 JTAG> >0x40 JTAG> >0x40 JTAG> >0x40 JTAG> >0x40 JTAG> >0x50 JTAG> >0x40 JTAG> >0x80 JTAG> >0x40 JTAG> >0x30 JTAG> >0x40 JTAG> >0x40 JTAG> >0x40 JTAG> >0x40 JTAG> >0x40 JTAG> >0x50 JTAG> >0x40 JTAG> >0x80 JTAG> >0x40 JTAG> >0x30 JTAG> >0x40 JTAG> >0x50 JTAG> >0x40 JTAG> >0x40 JTAG> >0x40 JTAG> >0x30 JTAG> >0x40 JTAG> >0x50 JTAG>
 >0x40 JTAG>Found Cortex-M4 r0p1, Little endian. >0x50 JTAG> >0x50 JTAG> >0x40 JTAG> >0x40 JTAG> >0x30 JTAG> >0x30 JTAG> >0x50 JTAG> >0x40 JTAG> >0x80 JTAG> >0x40 JTAG> >0x30 JTAG> >0x40 JTAG> >0x50 JTAG> >0x40 JTAG> >0x40 JTAG> >0x40 JTAG> >0x30 JTAG> >0x40 JTAG> >0x50 JTAG> >0x40 JTAG>TPIU fitted. >0x40 JTAG> >0x40 JTAG> >0x30 JTAG> >0x40 JTAG> >0x50 JTAG> >0x40 JTAG>ETM fitted. >0x40 JTAG> >0x40 JTAG> >0x30 JTAG> >0x40 JTAG> >0x50 JTAG> >0x40 JTAG> >0x40 JTAG> >0x40 JTAG> >0x30 JTAG> >0x40 JTAG>
 >0x50 JTAG> >0x40 JTAG>FPUnit: 6 code (BP) slots and 2 literal slots >0x40 JTAG> >0x40 JTAG> >0x30 JTAG> >0x40 JTAG> >0x50 JTAG> >0x40 JTAG> >0x40 JTAG> >0x40 JTAG> >0x30 JTAG> >0x40 JTAG> >0x50 JTAG> >0x40 JTAG> -- CPU is running -- CPU_WriteMem(4 bytes @ 0xE000EDF0) -- CPU is running -- CPU_WriteMem(4 bytes @ 0xE000EDFC) -- CPU is running -- CPU_WriteMem(4 bytes @ 0xE000ED0C) -- CPU is running -- CPU_ReadMem(4 bytes @ 0xE000EDF0) -- CPU is running -- CPU_ReadMem(4 bytes @ 0xE000EDF0) -- CPU is running
 -- CPU_WriteMem(4 bytes @ 0xE000EDF0) -- CPU is running -- CPU_WriteMem(4 bytes @ 0xE000EDFC) -- CPU is running -- CPU_ReadMem(4 bytes @ 0xE000EDF0) >0x90 JTAG> >0x40 JTAG> >0x30 JTAG> >0x40 JTAG> >0x50 JTAG> >0x40 JTAG> -- CPU_WriteMem(4 bytes @ 0xE000EDFC) -- CPU_WriteMem(4 bytes @ 0xE0001028) -- CPU_WriteMem(4 bytes @ 0xE0001038) -- CPU_WriteMem(4 bytes @ 0xE0001048) -- CPU_WriteMem(4 bytes @ 0xE0001058) -- CPU_WriteMem(4 bytes @ 0xE0002000) (0131ms, 0391ms total)
T409C 000:395 JLINK_ReadReg(R15)  returns 0x08011B84 (0000ms, 0391ms total)
T409C 000:395 JLINK_ReadReg(XPSR)  returns 0x01000000 (0000ms, 0391ms total)
T409C 000:395 JLINK_Halt()  returns 0x00 (0000ms, 0391ms total)
T409C 000:395 JLINK_IsHalted()  returns TRUE (0000ms, 0391ms total)
T409C 000:395 JLINK_ReadMemU32(0xE000EDF0, 0x0001 Items, ...) -- CPU_ReadMem(4 bytes @ 0xE000EDF0) -- Data:  03 00 03 00  returns 0x01 (0001ms, 0392ms total)
T409C 000:396 JLINK_WriteU32(0xE000EDF0, 0xA05F0003) -- CPU_WriteMem(4 bytes @ 0xE000EDF0)  returns 0x00 (0001ms, 0393ms total)
T409C 000:397 JLINK_WriteU32(0xE000EDFC, 0x01000000) -- CPU_WriteMem(4 bytes @ 0xE000EDFC)  returns 0x00 (0001ms, 0394ms total)
T409C 000:399 JLINK_GetHWStatus(...)  returns 0x00 (0001ms, 0395ms total)
T409C 000:400 JLINK_GetNumBPUnits(Type = 0xFFFFFF00)  returns 0x06 (0000ms, 0395ms total)
T409C 000:400 JLINK_GetNumBPUnits(Type = 0xF0)  returns 0x2000 (0000ms, 0395ms total)
T409C 000:400 JLINK_GetNumWPUnits()  returns 0x04 (0000ms, 0395ms total)
T409C 000:401 JLINK_GetSpeed()  returns 0x7D0 (0000ms, 0395ms total)
T409C 000:401 JLINK_ReadMemU32(0xE000E004, 0x0001 Items, ...) -- CPU_ReadMem(4 bytes @ 0xE000E004) -- Data:  02 00 00 00  returns 0x01 (0002ms, 0397ms total)
T409C 000:403 JLINK_ReadMemU32(0xE000E004, 0x0001 Items, ...) -- CPU_ReadMem(4 bytes @ 0xE000E004) -- Data:  02 00 00 00  returns 0x01 (0001ms, 0398ms total)
T409C 000:404 JLINK_WriteMem(0xE0001000, 0x001C Bytes, ...) -- Data:  01 00 00 00 00 00 00 00 00 00 00 00 00 00 00 00 ... -- CPU_WriteMem(28 bytes @ 0xE0001000)  returns 0x1C (0001ms, 0399ms total)
T409C 000:405 JLINK_ReadMem (0xE0001000, 0x001C Bytes, ...) -- CPU_ReadMem(28 bytes @ 0xE0001000) -- Data:  01 00 00 40 00 00 00 00 00 00 00 00 00 00 00 00 ...  returns 0x00 (0001ms, 0400ms total)
T409C 000:406 JLINK_ReadReg(R15)  returns 0x08011B84 (0000ms, 0400ms total)
T409C 000:406 JLINK_ReadReg(XPSR)  returns 0x01000000 (0000ms, 0400ms total)
T409C 000:522 JLINK_SetResetType(JLINKARM_RESET_TYPE_NORMAL)  returns JLINKARM_RESET_TYPE_NORMAL (0000ms, 0400ms total)
T409C 000:522 JLINK_Reset() >0x38 JTAG> >0x80 JTAG> >0x40 JTAG> >0x40 JTAG> >0x50 JTAG> >0x40 JTAG> >0x40 JTAG> >0x40 JTAG> >0x50 JTAG> >0x40 JTAG> >0x40 JTAG> >0x30 JTAG> >0x40 JTAG> >0x40 JTAG> >0x40 JTAG> >0x40 JTAG> >0x40 JTAG> >0x50 JTAG> >0x40 JTAG> >0x80 JTAG> >0x40 JTAG> >0x30 JTAG> >0x40 JTAG> >0x40 JTAG> >0x40 JTAG> >0x40 JTAG> >0x40 JTAG> >0x50 JTAG> >0x40 JTAG> >0x80 JTAG> >0x40 JTAG> >0x30 JTAG> >0x40 JTAG> >0x50 JTAG> >0x40 JTAG> >0x40 JTAG> >0x40 JTAG> >0x30 JTAG> >0x40 JTAG> >0x50 JTAG>
 >0x40 JTAG>Found Cortex-M4 r0p1, Little endian. >0x50 JTAG> >0x50 JTAG> >0x40 JTAG> >0x40 JTAG> >0x30 JTAG> >0x30 JTAG> >0x50 JTAG> >0x40 JTAG> >0x80 JTAG> >0x40 JTAG> >0x30 JTAG> >0x40 JTAG> >0x50 JTAG> >0x40 JTAG> >0x40 JTAG> >0x40 JTAG> >0x30 JTAG> >0x40 JTAG> >0x50 JTAG> >0x40 JTAG>TPIU fitted. >0x40 JTAG> >0x40 JTAG> >0x30 JTAG> >0x40 JTAG> >0x50 JTAG> >0x40 JTAG>ETM fitted. >0x40 JTAG> >0x40 JTAG> >0x30 JTAG> >0x40 JTAG> >0x50 JTAG> >0x40 JTAG> >0x40 JTAG> >0x40 JTAG> >0x30 JTAG> >0x40 JTAG>
 >0x50 JTAG> >0x40 JTAG>FPUnit: 6 code (BP) slots and 2 literal slots >0x40 JTAG> >0x40 JTAG> >0x30 JTAG> >0x40 JTAG> >0x50 JTAG> >0x40 JTAG> >0x40 JTAG> >0x40 JTAG> >0x30 JTAG> >0x40 JTAG> >0x50 JTAG> >0x40 JTAG> -- CPU_WriteMem(4 bytes @ 0xE000EDF0) -- CPU_WriteMem(4 bytes @ 0xE000EDFC) -- CPU_WriteMem(4 bytes @ 0xE000ED0C) -- CPU_ReadMem(4 bytes @ 0xE000EDF0) -- CPU_ReadMem(4 bytes @ 0xE000EDF0) -- CPU_WriteMem(4 bytes @ 0xE000EDF0) -- CPU_WriteMem(4 bytes @ 0xE000EDFC) -- CPU is running
 -- CPU_ReadMem(4 bytes @ 0xE000EDF0) >0x90 JTAG> >0x40 JTAG> >0x30 JTAG> >0x40 JTAG> >0x50 JTAG> >0x40 JTAG> -- CPU_WriteMem(4 bytes @ 0xE000EDFC) -- CPU_WriteMem(4 bytes @ 0xE0001028) -- CPU_WriteMem(4 bytes @ 0xE0001038) -- CPU_WriteMem(4 bytes @ 0xE0001048) -- CPU_WriteMem(4 bytes @ 0xE0001058) -- CPU_WriteMem(4 bytes @ 0xE0002000) (0132ms, 0532ms total)
T409C 000:654 JLINK_ReadReg(R15)  returns 0x08011B84 (0000ms, 0532ms total)
T409C 000:654 JLINK_ReadReg(XPSR)  returns 0x01000000 (0000ms, 0532ms total)
T409C 000:654 JLINK_ReadMemU32(0xE0001004, 0x0001 Items, ...) -- CPU_ReadMem(4 bytes @ 0xE0001004) -- Data:  42 0E 00 00  returns 0x01 (0001ms, 0533ms total)
T409C 000:656 JLINK_ReadMem (0x08011B84, 0x003C Bytes, ...) -- CPU_ReadMem(64 bytes @ 0x08011B80) -- Updating C cache (64 bytes @ 0x08011B80) -- Read from C cache (60 bytes @ 0x08011B84) -- Data:  06 48 80 47 06 48 00 47 FE E7 FE E7 FE E7 FE E7 ...  returns 0x00 (0002ms, 0535ms total)
T409C 001:871 JLINK_ReadMem (0x0800B198, 0x003C Bytes, ...) -- CPU_ReadMem(128 bytes @ 0x0800B180) -- Updating C cache (128 bytes @ 0x0800B180) -- Read from C cache (60 bytes @ 0x0800B198) -- Data:  09 6C D7 4A D2 6D 88 1A FC F7 E8 F9 04 46 01 2C ...  returns 0x00 (0004ms, 0539ms total)
T409C 002:133 JLINK_ReadMem (0x200007E0, 0x0020 Bytes, ...) -- CPU_ReadMem(64 bytes @ 0x200007C0) -- Updating C cache (64 bytes @ 0x200007C0) -- Read from C cache (32 bytes @ 0x200007E0) -- Data:  00 00 00 00 00 00 00 00 00 00 00 00 00 00 00 00 ...  returns 0x00 (0002ms, 0541ms total)
T409C 002:143 JLINK_ReadMem (0x200008E0, 0x0020 Bytes, ...) -- CPU_ReadMem(64 bytes @ 0x200008C0) -- Updating C cache (64 bytes @ 0x200008C0) -- Read from C cache (32 bytes @ 0x200008E0) -- Data:  00 00 00 00 00 00 00 00 00 00 00 00 00 00 00 00 ...  returns 0x00 (0002ms, 0543ms total)
T409C 002:160 JLINK_ReadMem (0x20001B44, 0x0020 Bytes, ...) -- CPU_ReadMem(64 bytes @ 0x20001B40) -- Updating C cache (64 bytes @ 0x20001B40) -- Read from C cache (32 bytes @ 0x20001B44) -- Data:  00 00 00 00 00 00 00 00 00 00 00 00 00 00 00 00 ...  returns 0x00 (0002ms, 0545ms total)
T409C 002:179 JLINK_ReadMem (0x20001B30, 0x0014 Bytes, ...) -- CPU_ReadMem(64 bytes @ 0x20001B00) -- Updating C cache (64 bytes @ 0x20001B00) -- Read from C cache (20 bytes @ 0x20001B30) -- Data:  00 00 00 00 00 00 00 00 00 00 00 00 00 00 00 00 ...  returns 0x00 (0002ms, 0547ms total)
T409C 002:189 JLINK_ReadMem (0x200002BC, 0x000D Bytes, ...) -- CPU_ReadMem(128 bytes @ 0x20000280) -- Updating C cache (128 bytes @ 0x20000280) -- Read from C cache (13 bytes @ 0x200002BC) -- Data:  FF FF FF FF FF FF FF FF FF FF FF FF FF  returns 0x00 (0003ms, 0550ms total)
T409C 002:203 JLINK_ReadMem (0x20000226, 0x0017 Bytes, ...) -- CPU_ReadMem(64 bytes @ 0x20000200) -- Updating C cache (64 bytes @ 0x20000200) -- Read from C cache (23 bytes @ 0x20000226) -- Data:  61 BD 2B 1A BF 24 6A D7 0D 12 D8 22 02 12 A4 02 ...  returns 0x00 (0002ms, 0552ms total)
T409C 002:216 JLINK_ReadMem (0x200004DE, 0x0020 Bytes, ...) -- CPU_ReadMem(64 bytes @ 0x200004C0) -- Updating C cache (64 bytes @ 0x200004C0) -- Read from C cache (32 bytes @ 0x200004DE) -- Data:  FF FF FF FF FF FF FF FF FF FF FF FF FF FF FF FF ...  returns 0x00 (0002ms, 0554ms total)
T409C 002:265 JLINK_ReadMem (0x200006E0, 0x0020 Bytes, ...) -- CPU_ReadMem(64 bytes @ 0x200006C0) -- Updating C cache (64 bytes @ 0x200006C0) -- Read from C cache (32 bytes @ 0x200006E0) -- Data:  00 00 00 00 00 00 00 00 00 00 00 00 00 00 00 00 ...  returns 0x00 (0002ms, 0556ms total)
T409C 002:280 JLINK_ReadMem (0x20000319, 0x0004 Bytes, ...) -- CPU_ReadMem(64 bytes @ 0x20000300) -- Updating C cache (64 bytes @ 0x20000300) -- Read from C cache (4 bytes @ 0x20000319) -- Data:  FF FF FF FF  returns 0x00 (0002ms, 0558ms total)
T409C 002:372 JLINK_ReadMem (0x20000344, 0x0020 Bytes, ...) -- CPU_ReadMem(64 bytes @ 0x20000340) -- Updating C cache (64 bytes @ 0x20000340) -- Read from C cache (32 bytes @ 0x20000344) -- Data:  FF FF FF FF FF FF FF FF FF FF FF FF FF FF FF FF ...  returns 0x00 (0002ms, 0560ms total)
T409C 002:439 JLINK_ReadMem (0x200010C7, 0x0020 Bytes, ...) -- CPU_ReadMem(64 bytes @ 0x200010C0) -- Updating C cache (64 bytes @ 0x200010C0) -- Read from C cache (32 bytes @ 0x200010C7) -- Data:  00 00 00 00 00 00 00 00 00 00 00 00 00 00 00 00 ...  returns 0x00 (0002ms, 0562ms total)
T409C 002:443 JLINK_ReadMem (0x20001A32, 0x0020 Bytes, ...) -- CPU_ReadMem(128 bytes @ 0x20001A00) -- Updating C cache (128 bytes @ 0x20001A00) -- Read from C cache (32 bytes @ 0x20001A32) -- Data:  00 00 00 00 00 00 00 00 00 00 00 00 00 00 00 00 ...  returns 0x00 (0003ms, 0565ms total)
T409C 002:449 JLINK_ReadMem (0x200002C9, 0x0012 Bytes, ...) -- Read from C cache (18 bytes @ 0x200002C9) -- Data:  FF FF FF FF FF FF FF FF FF FF FF FF FF FF FF FF ...  returns 0x00 (0000ms, 0565ms total)
T409C 002:451 JLINK_ReadMem (0x200002DB, 0x000D Bytes, ...) -- Read from C cache (13 bytes @ 0x200002DB) -- Data:  FF FF FF FF FF FF FF FF FF FF FF FF FF  returns 0x00 (0000ms, 0565ms total)
T409C 002:452 JLINK_ReadMem (0x200002E8, 0x0018 Bytes, ...) -- Read from C cache (24 bytes @ 0x200002E8) -- Data:  FF FF FF FF FF FF FF FF FF FF FF FF FF FF FF FF ...  returns 0x00 (0000ms, 0565ms total)
T409C 002:455 JLINK_ReadMem (0x20000253, 0x0005 Bytes, ...) -- CPU_ReadMem(64 bytes @ 0x20000240) -- Updating C cache (64 bytes @ 0x20000240) -- Read from C cache (5 bytes @ 0x20000253) -- Data:  D9 0E 79 64 2A  returns 0x00 (0003ms, 0568ms total)
TF85C 002:546 JLINK_SetBPEx(Addr = 0x0800019C, Type = 0xFFFFFFF2)  returns 0x00000001 (0000ms, 0568ms total)
TF85C 002:546 JLINK_SetBPEx(Addr = 0x0800B64C, Type = 0xFFFFFFF2)  returns 0x00000002 (0000ms, 0568ms total)
TF85C 002:546 JLINK_Go() -- CPU_WriteMem(4 bytes @ 0xE0002008) -- CPU_WriteMem(4 bytes @ 0xE000200C) -- CPU_WriteMem(4 bytes @ 0xE0002010) -- CPU_WriteMem(4 bytes @ 0xE0002014) -- CPU_WriteMem(4 bytes @ 0xE0002018) -- CPU_WriteMem(4 bytes @ 0xE000201C) (0008ms, 0576ms total)
TF85C 002:655 JLINK_IsHalted()  returns TRUE (0006ms, 0582ms total)
TF85C 002:661 JLINK_Halt()  returns 0x00 (0000ms, 0576ms total)
TF85C 002:661 JLINK_IsHalted()  returns TRUE (0000ms, 0576ms total)
TF85C 002:661 JLINK_IsHalted()  returns TRUE (0000ms, 0576ms total)
TF85C 002:661 JLINK_IsHalted()  returns TRUE (0000ms, 0576ms total)
TF85C 002:661 JLINK_ReadReg(R15)  returns 0x0800019C (0000ms, 0576ms total)
TF85C 002:661 JLINK_ReadReg(XPSR)  returns 0x61000000 (0000ms, 0576ms total)
TF85C 002:661 JLINK_ClrBPEx(BPHandle = 0x00000001)  returns 0x00 (0000ms, 0576ms total)
TF85C 002:661 JLINK_ClrBPEx(BPHandle = 0x00000002)  returns 0x00 (0000ms, 0576ms total)
TF85C 002:661 JLINK_ReadMemU32(0xE000ED30, 0x0001 Items, ...) -- CPU_ReadMem(4 bytes @ 0xE000ED30) -- Data:  03 00 00 00  returns 0x01 (0001ms, 0577ms total)
TF85C 002:662 JLINK_ReadMemU32(0xE0001028, 0x0001 Items, ...) -- CPU_ReadMem(4 bytes @ 0xE0001028) -- Data:  00 00 00 00  returns 0x01 (0001ms, 0578ms total)
TF85C 002:663 JLINK_ReadMemU32(0xE0001038, 0x0001 Items, ...) -- CPU_ReadMem(4 bytes @ 0xE0001038) -- Data:  00 02 00 00  returns 0x01 (0001ms, 0579ms total)
TF85C 002:664 JLINK_ReadMemU32(0xE0001048, 0x0001 Items, ...) -- CPU_ReadMem(4 bytes @ 0xE0001048) -- Data:  00 00 00 00  returns 0x01 (0001ms, 0580ms total)
TF85C 002:665 JLINK_ReadMemU32(0xE0001058, 0x0001 Items, ...) -- CPU_ReadMem(4 bytes @ 0xE0001058) -- Data:  00 00 00 00  returns 0x01 (0001ms, 0581ms total)
TF85C 002:666 JLINK_ReadReg(R0)  returns 0x0800019D (0000ms, 0581ms total)
TF85C 002:666 JLINK_ReadReg(R1)  returns 0x200024B0 (0000ms, 0581ms total)
TF85C 002:666 JLINK_ReadReg(R2)  returns 0x00000000 (0000ms, 0581ms total)
TF85C 002:666 JLINK_ReadReg(R3)  returns 0x08011FC5 (0000ms, 0581ms total)
TF85C 002:666 JLINK_ReadReg(R4)  returns 0x08012BB8 (0000ms, 0581ms total)
TF85C 002:666 JLINK_ReadReg(R5)  returns 0x08012BB8 (0000ms, 0581ms total)
TF85C 002:666 JLINK_ReadReg(R6)  returns 0x00000000 (0000ms, 0581ms total)
TF85C 002:666 JLINK_ReadReg(R7)  returns 0x00000000 (0000ms, 0581ms total)
TF85C 002:666 JLINK_ReadReg(R8)  returns 0x00000000 (0000ms, 0581ms total)
TF85C 002:666 JLINK_ReadReg(R9)  returns 0x00000000 (0000ms, 0581ms total)
TF85C 002:666 JLINK_ReadReg(R10)  returns 0x00000000 (0000ms, 0581ms total)
TF85C 002:666 JLINK_ReadReg(R11)  returns 0x00000000 (0000ms, 0581ms total)
TF85C 002:666 JLINK_ReadReg(R12)  returns 0x00000000 (0000ms, 0581ms total)
TF85C 002:666 JLINK_ReadReg(R13)  returns 0x200024B0 (0000ms, 0581ms total)
TF85C 002:666 JLINK_ReadReg(R14)  returns 0x08011EC9 (0000ms, 0581ms total)
TF85C 002:666 JLINK_ReadReg(R15)  returns 0x0800019C (0000ms, 0581ms total)
TF85C 002:666 JLINK_ReadReg(XPSR)  returns 0x61000000 (0000ms, 0581ms total)
TF85C 002:666 JLINK_ReadReg(MSP)  returns 0x200024B0 (0000ms, 0581ms total)
TF85C 002:666 JLINK_ReadReg(PSP)  returns 0x00000000 (0000ms, 0581ms total)
TF85C 002:666 JLINK_ReadReg(CFBP)  returns 0x00000000 (0000ms, 0581ms total)
TF85C 002:666 JLINK_ReadReg(FPSCR)  returns 0x00000000 (0009ms, 0590ms total)
TF85C 002:675 JLINK_ReadReg(FPS0)  returns 0x00000000 (0000ms, 0590ms total)
TF85C 002:675 JLINK_ReadReg(FPS1)  returns 0x00000000 (0000ms, 0590ms total)
TF85C 002:675 JLINK_ReadReg(FPS2)  returns 0x00000000 (0000ms, 0590ms total)
TF85C 002:675 JLINK_ReadReg(FPS3)  returns 0x00000000 (0000ms, 0590ms total)
TF85C 002:675 JLINK_ReadReg(FPS4)  returns 0x00000000 (0000ms, 0590ms total)
TF85C 002:675 JLINK_ReadReg(FPS5)  returns 0x00000000 (0000ms, 0590ms total)
TF85C 002:675 JLINK_ReadReg(FPS6)  returns 0x00000000 (0000ms, 0590ms total)
TF85C 002:675 JLINK_ReadReg(FPS7)  returns 0x00000000 (0000ms, 0590ms total)
TF85C 002:675 JLINK_ReadReg(FPS8)  returns 0x00000000 (0000ms, 0590ms total)
TF85C 002:675 JLINK_ReadReg(FPS9)  returns 0x00000000 (0000ms, 0590ms total)
TF85C 002:675 JLINK_ReadReg(FPS10)  returns 0x00000000 (0000ms, 0590ms total)
TF85C 002:675 JLINK_ReadReg(FPS11)  returns 0x00000000 (0000ms, 0590ms total)
TF85C 002:675 JLINK_ReadReg(FPS12)  returns 0x00000000 (0000ms, 0590ms total)
TF85C 002:675 JLINK_ReadReg(FPS13)  returns 0x00000000 (0000ms, 0590ms total)
TF85C 002:675 JLINK_ReadReg(FPS14)  returns 0x00000000 (0000ms, 0590ms total)
TF85C 002:675 JLINK_ReadReg(FPS15)  returns 0x00000000 (0000ms, 0590ms total)
TF85C 002:675 JLINK_ReadReg(FPS16)  returns 0x00000000 (0000ms, 0590ms total)
TF85C 002:675 JLINK_ReadReg(FPS17)  returns 0x00000000 (0000ms, 0590ms total)
TF85C 002:675 JLINK_ReadReg(FPS18)  returns 0x00000000 (0000ms, 0590ms total)
TF85C 002:675 JLINK_ReadReg(FPS19)  returns 0x00000000 (0000ms, 0590ms total)
TF85C 002:675 JLINK_ReadReg(FPS20)  returns 0x00000000 (0000ms, 0590ms total)
TF85C 002:675 JLINK_ReadReg(FPS31)  returns 0x00000000 (0000ms, 0590ms total)
TF85C 002:675 JLINK_ReadReg(FPS7)  returns 0x00000000 (0000ms, 0590ms total)
TF85C 002:675 JLINK_ReadReg(FPS8)  returns 0x00000000 (0000ms, 0590ms total)
TF85C 002:675 JLINK_ReadReg(FPS9)  returns 0x00000000 (0000ms, 0590ms total)
TF85C 002:675 JLINK_ReadReg(FPS10)  returns 0x00000000 (0000ms, 0590ms total)
TF85C 002:675 JLINK_ReadReg(FPS11)  returns 0x00000000 (0000ms, 0590ms total)
TF85C 002:675 JLINK_ReadReg(FPS12)  returns 0x00000000 (0000ms, 0590ms total)
TF85C 002:675 JLINK_ReadReg(FPS13)  returns 0x00000000 (0000ms, 0590ms total)
TF85C 002:675 JLINK_ReadReg(FPS14)  returns 0x00000000 (0001ms, 0591ms total)
TF85C 002:676 JLINK_ReadReg(FPS15)  returns 0x00000000 (0000ms, 0591ms total)
TF85C 002:676 JLINK_ReadReg(FPS16)  returns 0x00000000 (0000ms, 0591ms total)
T409C 002:677 JLINK_ReadMem (0x00000000, 0x0002 Bytes, ...)
                JLINK_ReadMemHW(0x00000000, 0x0004 Bytes, ...) -- CPU_ReadMem(4 bytes @ 0x00000000) -- Data:  B0 24 00 20  returns 0x00 (0002ms, 0002ms total)
                JLINK_ReadMemHW(0x08000000, 0x0004 Bytes, ...) -- CPU_ReadMem(4 bytes @ 0x08000000) -- Data:  B0 24 00 20  returns 0x00 (0001ms, 0003ms total)
                JLINK_WriteMemHW(0x00000000, 0x0004 Bytes, ...) -- Data:  01 00 01 00 -- CPU_WriteMem(4 bytes @ 0x00000000)  returns 0x04 (0001ms, 0004ms total)
                JLINK_ReadMemHW(0x00000000, 0x0004 Bytes, ...) -- CPU_ReadMem(4 bytes @ 0x00000000) -- Data:  B0 24 00 20  returns 0x00 (0001ms, 0005ms total)
               -- MA0 is in flash -- Unmirror addr 0x00000000 -- CPU_ReadMem(64 bytes @ 0x08000000) -- Updating C cache (64 bytes @ 0x08000000) -- Read from C cache (2 bytes @ 0x08000000) -- Data:  B0 24  returns 0x00 (0007ms, 0598ms total)
T409C 002:684 JLINK_ReadMemU32(0xE0001004, 0x0001 Items, ...) -- CPU_ReadMem(4 bytes @ 0xE0001004) -- Data:  F4 81 00 00  returns 0x01 (0002ms, 0600ms total)
T409C 002:686 JLINK_ReadMem (0x200007E0, 0x0020 Bytes, ...) -- CPU_ReadMem(64 bytes @ 0x200007C0) -- Updating C cache (64 bytes @ 0x200007C0) -- Read from C cache (32 bytes @ 0x200007E0) -- Data:  00 00 00 00 00 00 00 00 00 00 00 00 00 00 00 00 ...  returns 0x00 (0002ms, 0602ms total)
T409C 002:688 JLINK_ReadMem (0x200008E0, 0x0020 Bytes, ...) -- CPU_ReadMem(64 bytes @ 0x200008C0) -- Updating C cache (64 bytes @ 0x200008C0) -- Read from C cache (32 bytes @ 0x200008E0) -- Data:  00 00 00 00 00 00 00 00 00 00 00 00 00 00 00 00 ...  returns 0x00 (0002ms, 0604ms total)
T409C 002:704 JLINK_ReadMem (0x20001B44, 0x0020 Bytes, ...) -- CPU_ReadMem(64 bytes @ 0x20001B40) -- Updating C cache (64 bytes @ 0x20001B40) -- Read from C cache (32 bytes @ 0x20001B44) -- Data:  00 00 00 00 00 00 00 00 00 00 00 00 00 00 00 00 ...  returns 0x00 (0002ms, 0606ms total)
T409C 002:720 JLINK_ReadMem (0x20001B30, 0x0014 Bytes, ...) -- CPU_ReadMem(64 bytes @ 0x20001B00) -- Updating C cache (64 bytes @ 0x20001B00) -- Read from C cache (20 bytes @ 0x20001B30) -- Data:  00 00 00 00 00 00 00 00 00 00 00 00 00 00 00 00 ...  returns 0x00 (0002ms, 0608ms total)
T409C 002:722 JLINK_ReadMem (0x200002BC, 0x000D Bytes, ...) -- CPU_ReadMem(128 bytes @ 0x20000280) -- Updating C cache (128 bytes @ 0x20000280) -- Read from C cache (13 bytes @ 0x200002BC) -- Data:  E0 00 0A 00 00 00 00 00 00 00 00 00 00  returns 0x00 (0003ms, 0611ms total)
T409C 002:738 JLINK_ReadMem (0x20000226, 0x0017 Bytes, ...) -- CPU_ReadMem(64 bytes @ 0x20000200) -- Updating C cache (64 bytes @ 0x20000200) -- Read from C cache (23 bytes @ 0x20000226) -- Data:  B3 00 14 61 62 63 64 65 61 62 63 64 65 61 62 63 ...  returns 0x00 (0002ms, 0613ms total)
T409C 002:752 JLINK_ReadMem (0x200004DE, 0x0020 Bytes, ...) -- CPU_ReadMem(64 bytes @ 0x200004C0) -- Updating C cache (64 bytes @ 0x200004C0) -- Read from C cache (32 bytes @ 0x200004DE) -- Data:  00 00 00 00 00 00 00 00 00 00 00 00 00 00 00 00 ...  returns 0x00 (0002ms, 0615ms total)
T409C 002:764 JLINK_ReadMem (0x200006E0, 0x0020 Bytes, ...) -- CPU_ReadMem(64 bytes @ 0x200006C0) -- Updating C cache (64 bytes @ 0x200006C0) -- Read from C cache (32 bytes @ 0x200006E0) -- Data:  00 00 00 00 00 00 00 00 00 00 00 00 00 00 00 00 ...  returns 0x00 (0003ms, 0618ms total)
T409C 002:767 JLINK_ReadMem (0x20000319, 0x0004 Bytes, ...) -- CPU_ReadMem(64 bytes @ 0x20000300) -- Updating C cache (64 bytes @ 0x20000300) -- Read from C cache (4 bytes @ 0x20000319) -- Data:  00 00 00 00  returns 0x00 (0002ms, 0620ms total)
T409C 002:810 JLINK_ReadMem (0x20000344, 0x0020 Bytes, ...) -- CPU_ReadMem(64 bytes @ 0x20000340) -- Updating C cache (64 bytes @ 0x20000340) -- Read from C cache (32 bytes @ 0x20000344) -- Data:  20 20 20 20 20 20 20 20 20 20 20 20 20 20 31 20 ...  returns 0x00 (0003ms, 0623ms total)
T409C 002:833 JLINK_ReadMem (0x0800019C, 0x003C Bytes, ...) -- CPU_ReadMem(128 bytes @ 0x08000180) -- Updating C cache (128 bytes @ 0x08000180) -- Read from C cache (60 bytes @ 0x0800019C) -- Data:  0B F0 66 FE 04 20 03 F0 D2 F8 FE 48 00 68 10 F4 ...  returns 0x00 (0003ms, 0626ms total)
T409C 004:433 JLINK_Close() -- CPU_WriteMem(4 bytes @ 0xE0002008) -- CPU_WriteMem(4 bytes @ 0xE000200C) -- CPU_WriteMem(4 bytes @ 0xE0002010) -- CPU_WriteMem(4 bytes @ 0xE0002014) -- CPU_WriteMem(4 bytes @ 0xE0002018) -- CPU_WriteMem(4 bytes @ 0xE000201C) -- Invalidate MA0 status >0x08 JTAG> (0036ms, 0662ms total)
T409C 004:635 JLINK_Close() (0000ms, 0662ms total)
T409C 004:635 JLINK_Close() (0000ms, 0662ms total)
